Freq.	V(n002)
1.00000000000000e+000	9.98460248802205e-001 -3.92094422817305e-002
1.02329299228075e+000	9.98387799555214e-001 -4.01198361725388e-002
1.04712854805090e+000	9.98311947148465e-001 -4.10512281071539e-002
1.07151930523761e+000	9.98232532280282e-001 -4.20040923908403e-002
1.09647819614318e+000	9.98149388245529e-001 -4.29789133250856e-002
1.12201845430196e+000	9.98062340596687e-001 -4.39761853660548e-002
1.14815362149688e+000	9.97971206789910e-001 -4.49964132815158e-002
1.17489755493953e+000	9.97875795815448e-001 -4.60401123058415e-002
1.20226443461741e+000	9.97775907811801e-001 -4.71078082926551e-002
1.23026877081238e+000	9.97671333662936e-001 -4.82000378646562e-002
1.25892541179417e+000	9.97561854577900e-001 -4.93173485601194e-002
1.28824955169313e+000	9.97447241652118e-001 -5.04602989755227e-002
1.31825673855641e+000	9.97327255409665e-001 -5.16294589037142e-002
1.34896288259165e+000	9.97201645325763e-001 -5.28254094669822e-002
1.38038426460288e+000	9.97070149328751e-001 -5.40487432443413e-002
1.41253754462275e+000	9.96932493280735e-001 -5.53000643922947e-002
1.44543977074593e+000	9.96788390436122e-001 -5.65799887582772e-002
1.47910838816821e+000	9.96637540877225e-001 -5.78891439859206e-002
1.51356124843621e+000	9.96479630926088e-001 -5.92281696112202e-002
1.54881661891248e+000	9.96314332531690e-001 -6.05977171486120e-002
1.58489319246111e+000	9.96141302631646e-001 -6.19984501658968e-002
1.62181009735893e+000	9.95960182487531e-001 -6.34310443468710e-002
1.65958690743756e+000	9.95770596992920e-001 -6.48961875404393e-002
1.69824365246174e+000	9.95572153953245e-001 -6.63945797948979e-002
1.73780082874937e+000	9.95364443336554e-001 -6.79269333759860e-002
1.77827941003892e+000	9.95147036494243e-001 -6.94939727672006e-002
1.81970085860998e+000	9.94919485350849e-001 -7.10964346507680e-002
1.86208713666287e+000	9.94681321561975e-001 -7.27350678675564e-002
1.90546071796325e+000	9.94432055639440e-001 -7.44106333540924e-002
1.94984459975804e+000	9.94171176042742e-001 -7.61239040547258e-002
1.99526231496888e+000	9.93898148235940e-001 -7.78756648068534e-002
2.04173794466953e+000	9.93612413709100e-001 -7.96667121969779e-002
2.08929613085404e+000	9.93313388963450e-001 -8.14978543852296e-002
2.13796208950223e+000	9.93000464459438e-001 -8.33699108958312e-002
2.18776162394955e+000	9.92673003526935e-001 -8.52837123708206e-002
2.23872113856834e+000	9.92330341236862e-001 -8.72401002841843e-002
2.29086765276777e+000	9.91971783233591e-001 -8.92399266133726e-002
2.34422881531992e+000	9.91596604527535e-001 -9.12840534649882e-002
2.39883291901949e+000	9.91204048247433e-001 -9.33733526512443e-002
2.45470891568503e+000	9.90793324351935e-001 -9.55087052135892e-002
2.51188643150958e+000	9.90363608300179e-001 -9.76910008896845e-002
2.57039578276886e+000	9.89914039681215e-001 -9.99211375197091e-002
2.63026799189538e+000	9.89443720802246e-001 -1.02200020387732e-001
2.69153480392691e+000	9.88951715235834e-001 -1.04528561493671e-001
2.75422870333816e+000	9.88437046326393e-001 -1.06907678751103e-001
2.81838293126445e+000	9.87898695656507e-001 -1.09338295105963e-001
2.88403150312660e+000	9.87335601473825e-001 -1.11821337570899e-001
2.95120922666638e+000	9.86746657079553e-001 -1.14357736169792e-001
3.01995172040201e+000	9.86130709179847e-001 -1.16948422786711e-001
3.09029543251359e+000	9.85486556201709e-001 -1.19594329913274e-001
3.16227766016837e+000	9.84812946575360e-001 -1.22296389288145e-001
3.23593656929628e+000	9.84108576985416e-001 -1.25055530422110e-001
3.31131121482591e+000	9.83372090593645e-001 -1.27872679001925e-001
3.38844156139202e+000	9.82602075236501e-001 -1.30748755165861e-001
3.46736850452531e+000	9.81797061601191e-001 -1.33684671643605e-001
3.54813389233575e+000	9.80955521384506e-001 -1.36681331752943e-001
3.63078054770101e+000	9.80075865439320e-001 -1.39739627245417e-001
3.71535229097172e+000	9.79156441914239e-001 -1.42860435992918e-001
3.80189396320560e+000	9.78195534392635e-001 -1.46044619506992e-001
3.89045144994280e+000	9.77191360038026e-001 -1.49293020282459e-001
3.98107170553496e+000	9.76142067753590e-001 -1.52606458956807e-001
4.07380277804112e+000	9.75045736364479e-001 -1.55985731276709e-001
4.16869383470335e+000	9.73900372832540e-001 -1.59431604862963e-001
4.26579518801592e+000	9.72703910514041e-001 -1.62944815765133e-001
4.36515832240165e+000	9.71454207472107e-001 -1.66526064797218e-001
4.46683592150962e+000	9.70149044856661e-001 -1.70176013645781e-001
4.57088189614874e+000	9.68786125365928e-001 -1.73895280742175e-001
4.67735141287197e+000	9.67363071804794e-001 -1.77684436890761e-001
4.78630092322637e+000	9.65877425756676e-001 -1.81544000645389e-001
4.89778819368445e+000	9.64326646386972e-001 -1.85474433426895e-001
5.01187233627271e+000	9.62708109397618e-001 -1.89476134374971e-001
5.12861383991364e+000	9.61019106153816e-001 -1.93549434928487e-001
5.24807460249771e+000	9.59256843005589e-001 -1.97694593129249e-001
5.37031796370252e+000	9.57418440828434e-001 -2.01911787645210e-001
5.49540873857623e+000	9.55500934809012e-001 -2.06201111510380e-001
5.62341325190348e+000	9.53501274503522e-001 -2.10562565580119e-001
5.75439937337156e+000	9.51416324198080e-001 -2.14996051702105e-001
5.88843655355588e+000	9.49242863602164e-001 -2.19501365605153e-001
6.02559586074356e+000	9.46977588907821e-001 -2.24078189510159e-001
6.16595001861481e+000	9.44617114249009e-001 -2.28726084469794e-001
6.30957344480192e+000	9.42157973596996e-001 -2.33444482446251e-001
6.45654229034654e+000	9.39596623129217e-001 -2.38232678139228e-001
6.60693448007594e+000	9.36929444110337e-001 -2.43089820579621e-001
6.76082975391980e+000	9.34152746325466e-001 -2.48014904507886e-001
6.91830970918935e+000	9.31262772106447e-001 -2.53006761559968e-001
7.07945784384136e+000	9.28255700992890e-001 -2.58064051287831e-001
7.24435960074988e+000	9.25127655070075e-001 -2.63185252046195e-001
7.41310241300916e+000	9.21874705025973e-001 -2.68368651781925e-001
7.58577575029182e+000	9.18492876969343e-001 -2.73612338767685e-001
7.76247116628690e+000	9.14978160050132e-001 -2.78914192326972e-001
7.94328234724279e+000	9.11326514922176e-001 -2.84271873603381e-001
8.12830516164097e+000	9.07533883086361e-001 -2.89682816432996e-001
8.31763771102669e+000	9.03596197149954e-001 -2.95144218385004e-001
8.51138038202374e+000	8.99509392034664e-001 -3.00653032042075e-001
8.70963589956078e+000	8.95269417162019e-001 -3.06205956598492e-001
8.91250938133743e+000	8.90872249639926e-001 -3.11799429860645e-001
9.12010839355907e+000	8.86313908468586e-001 -3.17429620740921e-001
9.33254300796988e+000	8.81590469777343e-001 -3.23092422342442e-001
9.54992586021433e+000	8.76698083096430e-001 -3.28783445738186e-001
9.77237220955808e+000	8.71632988658963e-001 -3.34498014553760e-001
9.99999999999997e+000	8.66391535718800e-001 -3.40231160468319e-001
1.02329299228075e+001	8.60970201859158e-001 -3.45977619752721e-001
1.04712854805090e+001	8.55365613255003e-001 -3.51731830967707e-001
1.07151930523760e+001	8.49574565839398e-001 -3.57487933947701e-001
1.09647819614318e+001	8.43594047310099e-001 -3.63239770197407e-001
1.12201845430196e+001	8.37421259897931e-001 -3.68980884828595e-001
1.14815362149688e+001	8.31053643802873e-001 -3.74704530163221e-001
1.17489755493953e+001	8.24488901187531e-001 -3.80403671125961e-001
1.20226443461741e+001	8.17725020600875e-001 -3.86070992544342e-001
1.23026877081238e+001	8.10760301688051e-001 -3.91698908467654e-001
1.25892541179416e+001	8.03593380024910e-001 -3.97279573606611e-001
1.28824955169313e+001	7.96223251898924e-001 -4.02804896984169e-001
1.31825673855640e+001	7.88649298841712e-001 -4.08266557873883e-001
1.34896288259165e+001	7.80871311702739e-001 -4.13656024085692e-001
1.38038426460288e+001	7.72889514039347e-001 -4.18964572639941e-001
1.41253754462275e+001	7.64704584585387e-001 -4.24183312848912e-001
1.44543977074592e+001	7.56317678549848e-001 -4.29303211801190e-001
1.47910838816820e+001	7.47730447488371e-001 -4.34315122217971e-001
1.51356124843620e+001	7.38945057484812e-001 -4.39209812622145e-001
1.54881661891248e+001	7.29964205377435e-001 -4.43977999730983e-001
1.58489319246111e+001	7.20791132765348e-001 -4.48610382951838e-001
1.62181009735892e+001	7.11429637535583e-001 -4.53097680827845e-001
1.65958690743755e+001	7.01884082660250e-001 -4.57430669247733e-001
1.69824365246174e+001	6.92159402026509e-001 -4.61600221201003e-001
1.73780082874937e+001	6.82261103079946e-001 -4.65597347827585e-001
1.77827941003892e+001	6.72195266084333e-001 -4.69413240480225e-001
1.81970085860998e+001	6.61968539827593e-001 -4.73039313488971e-001
1.86208713666286e+001	6.51588133635041e-001 -4.76467247290981e-001
1.90546071796324e+001	6.41061805586233e-001 -4.79689031566026e-001
1.94984459975804e+001	6.30397846870777e-001 -4.82697007999289e-001
1.99526231496887e+001	6.19605062260591e-001 -4.85483912278914e-001
2.04173794466952e+001	6.08692746720943e-001 -4.88042914926809e-001
2.08929613085403e+001	5.97670658229218e-001 -4.90367660557944e-001
2.13796208950222e+001	5.86548986918183e-001 -4.92452305166131e-001
2.18776162394954e+001	5.75338320708526e-001 -4.94291551043328e-001
2.23872113856833e+001	5.64049607642788e-001 -4.95880678954933e-001
2.29086765276776e+001	5.52694115178571e-001 -4.97215577215304e-001
2.34422881531991e+001	5.41283386742085e-001 -4.98292767335733e-001
2.39883291901948e+001	5.29829195882836e-001 -4.99109425950846e-001
2.45470891568502e+001	5.18343498405641e-001 -4.99663402768546e-001
2.51188643150957e+001	5.06838382886438e-001 -4.99953234332471e-001
2.57039578276885e+001	4.95326020002823e-001 -4.99978153433713e-001
2.63026799189537e+001	4.83818611128352e-001 -4.99738094059463e-001
2.69153480392690e+001	4.72328336650913e-001 -4.99233691819267e-001
2.75422870333815e+001	4.60867304479786e-001 -4.98466279843805e-001
2.81838293126444e+001	4.49447499203034e-001 -4.97437880205330e-001
2.88403150312659e+001	4.38080732346921e-001 -4.96151190962298e-001
2.95120922666637e+001	4.26778594172199e-001 -4.94609568982041e-001
3.01995172040200e+001	4.15552407418776e-001 -4.92817008743850e-001
3.09029543251358e+001	4.04413183381074e-001 -4.90778117369407e-001
3.16227766016837e+001	3.93371580661882e-001 -4.88498086167648e-001
3.23593656929627e+001	3.82437866913534e-001 -4.85982659015895e-001
3.31131121482590e+001	3.71621883832630e-001 -4.83238097928254e-001
3.38844156139201e+001	3.60933015629175e-001 -4.80271146185157e-001
3.46736850452530e+001	3.50380161143912e-001 -4.77088989414635e-001
3.54813389233574e+001	3.39971709739615e-001 -4.73699215026094e-001
3.63078054770100e+001	3.29715521044272e-001 -4.70109770401314e-001
3.71535229097171e+001	3.19618908577082e-001 -4.66328920245224e-001
3.80189396320559e+001	3.09688627243048e-001 -4.62365203491098e-001
3.89045144994279e+001	2.99930864639191e-001 -4.58227390141596e-001
3.98107170553495e+001	2.90351236075791e-001 -4.53924438409138e-001
4.07380277804111e+001	2.80954783180055e-001 -4.49465452496967e-001
4.16869383470333e+001	2.71745975917586e-001 -4.44859641336663e-001
4.26579518801591e+001	2.62728717839339e-001 -4.40116278569466e-001
4.36515832240164e+001	2.53906354338506e-001 -4.35244664028217e-001
4.46683592150961e+001	2.45281683683098e-001 -4.30254086944776e-001
4.57088189614873e+001	2.36856970575799e-001 -4.25153791075011e-001
4.67735141287196e+001	2.28633961982897e-001 -4.19952941900518e-001
4.78630092322636e+001	2.20613904968466e-001 -4.14660596033709e-001
4.89778819368444e+001	2.12797566268318e-001 -4.09285672921248e-001
5.01187233627270e+001	2.05185253340142e-001 -4.03836928910524e-001
5.12861383991362e+001	1.97776836631423e-001 -3.98322933715209e-001
5.24807460249770e+001	1.90571772814728e-001 -3.92752049289344e-001
5.37031796370250e+001	1.83569128750439e-001 -3.87132411095020e-001
5.49540873857622e+001	1.76767605949528e-001 -3.81471911726671e-001
5.62341325190346e+001	1.70165565323126e-001 -3.75778186835515e-001
5.75439937337154e+001	1.63761052021084e-001 -3.70058603280659e-001
5.88843655355586e+001	1.57551820178078e-001 -3.64320249418904e-001
6.02559586074355e+001	1.51535357402654e-001 -3.58569927433275e-001
6.16595001861479e+001	1.45708908861823e-001 -3.52814147590654e-001
6.30957344480190e+001	1.40069500830866e-001 -3.47059124311490e-001
6.45654229034652e+001	1.34613963594922e-001 -3.41310773929255e-001
6.60693448007593e+001	1.29338953605266e-001 -3.35574714013974e-001
6.76082975391978e+001	1.24240974808937e-001 -3.29856264132519e-001
6.91830970918933e+001	1.19316399085311e-001 -3.24160447918350e-001
7.07945784384134e+001	1.14561485737235e-001 -3.18491996324731e-001
7.24435960074986e+001	1.09972399997442e-001 -3.12855351937992e-001
7.41310241300914e+001	1.05545230522953e-001 -3.07254674231019e-001
7.58577575029180e+001	1.01276005861166e-001 -3.01693845641530e-001
7.76247116628688e+001	9.71607098812400e-002 -2.96176478364865e-001
7.94328234724277e+001	9.31952961731750e-002 -2.90705921756625e-001
8.12830516164095e+001	8.93757014248335e-002 -2.85285270246560e-001
8.31763771102667e+001	8.56978577939052e-002 -2.79917371671429e-001
8.51138038202372e+001	8.21577042976697e-002 -2.74604835941042e-001
8.70963589956076e+001	7.87511972483354e-002 -2.69350043958209e-001
8.91250938133741e+001	7.54743197658226e-002 -2.64155156719889e-001
9.12010839355905e+001	7.23230904031603e-002 -2.59022124533208e-001
9.33254300796986e+001	6.92935709222541e-002 -2.53952696286329e-001
9.54992586021431e+001	6.63818732597168e-002 -2.48948428720182e-001
9.77237220955805e+001	6.35841657238001e-002 -2.44010695652892e-001
9.99999999999995e+001	6.08966784642882e-002 -2.39140697114283e-001
1.02329299228075e+002	5.83157082575743e-002 -2.34339468353054e-001
1.04712854805089e+002	5.58376226490965e-002 -2.29607888684151e-001
1.07151930523760e+002	5.34588634949118e-002 -2.24946690148453e-001
1.09647819614318e+002	5.11759499434969e-002 -2.20356465961128e-001
1.12201845430196e+002	4.89854808979148e-002 -2.15837678728981e-001
1.14815362149688e+002	4.68841369973363e-002 -2.11390668420702e-001
1.17489755493952e+002	4.48686821555813e-002 -2.07015660077209e-001
1.20226443461741e+002	4.29359646928932e-002 -2.02712771252291e-001
1.23026877081237e+002	4.10829180956029e-002 -1.98482019176430e-001
1.25892541179416e+002	3.93065614367142e-002 -1.94323327639108e-001
1.28824955169313e+002	3.76039994887683e-002 -1.90236533587051e-001
1.31825673855640e+002	3.59724225586458e-002 -1.86221393437779e-001
1.34896288259165e+002	3.44091060722606e-002 -1.82277589109491e-001
1.38038426460288e+002	3.29114099354058e-002 -1.78404733769790e-001
1.41253754462275e+002	3.14767776953377e-002 -1.74602377307000e-001
1.44543977074592e+002	3.01027355260502e-002 -1.70870011528936e-001
1.47910838816820e+002	2.87868910585971e-002 -1.67207075094858e-001
1.51356124843620e+002	2.75269320762819e-002 -1.63612958187149e-001
1.54881661891247e+002	2.63206250930469e-002 -1.60087006929851e-001
1.58489319246110e+002	2.51658138319768e-002 -1.56628527561716e-001
1.62181009735892e+002	2.40604176194714e-002 -1.53236790371790e-001
1.65958690743755e+002	2.30024297093549e-002 -1.49911033405888e-001
1.69824365246173e+002	2.19899155499667e-002 -1.46650465952455e-001
1.73780082874936e+002	2.10210110061252e-002 -1.43454271816511e-001
1.77827941003891e+002	2.00939205467722e-002 -1.40321612390366e-001
1.81970085860997e+002	1.92069154080858e-002 -1.37251629529825e-001
1.86208713666286e+002	1.83583317408981e-002 -1.34243448244558e-001
1.90546071796323e+002	1.75465687503645e-002 -1.31296179211176e-001
1.94984459975803e+002	1.67700868350042e-002 -1.28408921117462e-001
1.99526231496887e+002	1.60274057314647e-002 -1.25580762846002e-001
2.04173794466952e+002	1.53171026706502e-002 -1.22810785505292e-001
2.08929613085403e+002	1.46378105501978e-002 -1.20098064316184e-001
2.13796208950222e+002	1.39882161276808e-002 -1.17441670361274e-001
2.18776162394954e+002	1.33670582383593e-002 -1.14840672204631e-001
2.23872113856832e+002	1.27731260407914e-002 -1.12294137388990e-001
2.29086765276776e+002	1.22052572931465e-002 -1.09801133817254e-001
2.34422881531991e+002	1.16623366626405e-002 -1.07360731024932e-001
2.39883291901947e+002	1.11432940701189e-002 -1.04972001349816e-001
2.45470891568501e+002	1.06471030714662e-002 -1.02634021004985e-001
2.51188643150956e+002	1.01727792771959e-002 -1.00345871060913e-001
2.57039578276885e+002	9.71937881128871e-003 -9.81066383422212e-002
2.63026799189536e+002	9.28599681008537e-003 -9.59154162443580e-002
2.69153480392690e+002	8.87176596180639e-003 -9.37713054752109e-002
2.75422870333815e+002	8.47585508706214e-003 -9.16734147264367e-002
2.81838293126443e+002	8.09746776052871e-003 -8.96208612790343e-002
2.88403150312659e+002	7.73584097379936e-003 -8.76127715474602e-002
2.95120922666637e+002	7.39024383927396e-003 -8.56482815663574e-002
3.01995172040200e+002	7.05997633481879e-003 -8.37265374237499e-002
3.09029543251357e+002	6.74436808881542e-003 -8.18466956443447e-002
3.16227766016836e+002	6.44277720511826e-003 -8.00079235263825e-002
3.23593656929626e+002	6.15458912735386e-003 -7.82093994352809e-002
3.31131121482589e+002	5.87921554192196e-003 -7.64503130571326e-002
3.38844156139200e+002	5.61609331899453e-003 -7.47298656149392e-002
3.46736850452529e+002	5.36468349075681e-003 -7.30472700502956e-002
3.54813389233573e+002	5.12447026608983e-003 -7.14017511730755e-002
3.63078054770099e+002	4.89496008085836e-003 -6.97925457815171e-002
3.71535229097170e+002	4.67568068293957e-003 -6.82189027549605e-002
3.80189396320558e+002	4.46618025110554e-003 -6.66800831213502e-002
3.89045144994278e+002	4.26602654685666e-003 -6.51753601014845e-002
3.98107170553494e+002	4.07480609829213e-003 -6.37040191318684e-002
4.07380277804110e+002	3.89212341509723e-003 -6.22653578679099e-002
4.16869383470332e+002	3.71760023372510e-003 -6.08586861690861e-002
4.26579518801589e+002	3.55087479185200e-003 -5.94833260676014e-002
4.36515832240163e+002	3.39160113118997e-003 -5.81386117219605e-002
4.46683592150960e+002	3.23944842774794e-003 -5.68238893567829e-002
4.57088189614872e+002	3.09410034864265e-003 -5.55385171901013e-002
4.67735141287195e+002	2.95525443457234e-003 -5.42818653492977e-002
4.78630092322635e+002	2.82262150708041e-003 -5.30533157767559e-002
4.89778819368443e+002	2.69592509975124e-003 -5.18522621262348e-002
5.01187233627268e+002	2.57490091249742e-003 -5.06781096508960e-002
5.12861383991361e+002	2.45929628811500e-003 -4.95302750838542e-002
5.24807460249769e+002	2.34886971030240e-003 -4.84081865120604e-002
5.37031796370249e+002	2.24339032235751e-003 -4.73112832442649e-002
5.49540873857620e+002	2.14263746578794e-003 -4.62390156737591e-002
5.62341325190345e+002	2.04640023808918e-003 -4.51908451365398e-002
5.75439937337152e+002	1.95447706896619e-003 -4.41662437654945e-002
5.88843655355584e+002	1.86667531429495e-003 -4.31646943411622e-002
6.02559586074353e+002	1.78281086714072e-003 -4.21856901395808e-002
6.16595001861477e+002	1.70270778517118e-003 -4.12287347776948e-002
6.30957344480188e+002	1.62619793382302e-003 -4.02933420567598e-002
6.45654229034650e+002	1.55312064460095e-003 -3.93790358041467e-002
6.60693448007591e+002	1.48332238790896e-003 -3.84853497139169e-002
6.76082975391976e+002	1.41665645983302e-003 -3.76118271865092e-002
6.91830970918931e+002	1.35298268231493e-003 -3.67580211678524e-002
7.07945784384132e+002	1.29216711617575e-003 -3.59234939881914e-002
7.24435960074984e+002	1.23408178646681e-003 -3.51078172008902e-002
7.41310241300911e+002	1.17860441964463e-003 -3.43105714214529e-002
7.58577575029177e+002	1.12561819208446e-003 -3.35313461669839e-002
7.76247116628685e+002	1.07501148946483e-003 -3.27697396962861e-002
7.94328234724275e+002	1.02667767657293e-003 -3.20253588507820e-002
8.12830516164092e+002	9.80514877097428e-004 -3.12978188964218e-002
8.31763771102664e+002	9.36425762991761e-004 -3.05867433667294e-002
