Freq.	V(vout)
1.00000000000000e+001	9.69251880652666e-001 -1.83423803415171e-001
1.02329299228075e+001	9.67842819430647e-001 -1.87458442993579e-001
1.04712854805090e+001	9.66371104086012e-001 -1.91570697026520e-001
1.07151930523761e+001	9.64834127892272e-001 -1.95761279079042e-001
1.09647819614319e+001	9.63229192386902e-001 -2.00030849878254e-001
1.12201845430196e+001	9.61553505732015e-001 -2.04380012110003e-001
1.14815362149688e+001	9.59804181213281e-001 -2.08809304918639e-001
1.17489755493953e+001	9.57978235898597e-001 -2.13319198101531e-001
1.20226443461741e+001	9.56072589479849e-001 -2.17910085990715e-001
1.23026877081238e+001	9.54084063322824e-001 -2.22582281014975e-001
1.25892541179417e+001	9.52009379752252e-001 -2.27336006936720e-001
1.28824955169313e+001	9.49845161600860e-001 -2.32171391759291e-001
1.31825673855641e+001	9.47587932053289e-001 -2.37088460301825e-001
1.34896288259165e+001	9.45234114817692e-001 -2.42087126440521e-001
1.38038426460288e+001	9.42780034659855e-001 -2.47167185017106e-001
1.41253754462275e+001	9.40221918336654e-001 -2.52328303417557e-001
1.44543977074593e+001	9.37555895967640e-001 -2.57570012826668e-001
1.47910838816821e+001	9.34778002885427e-001 -2.62891699166857e-001
1.51356124843621e+001	9.31884182007402e-001 -2.68292593732811e-001
1.54881661891248e+001	9.28870286772963e-001 -2.73771763537060e-001
1.58489319246111e+001	9.25732084692036e-001 -2.79328101385419e-001
1.62181009735893e+001	9.22465261551994e-001 -2.84960315705507e-001
1.65958690743756e+001	9.19065426331167e-001 -2.90666920156137e-001
1.69824365246174e+001	9.15528116867975e-001 -2.96446223050384e-001
1.73780082874937e+001	9.11848806335158e-001 -3.02296316630538e-001
1.77827941003892e+001	9.08022910568620e-001 -3.08215066238878e-001
1.81970085860998e+001	9.04045796299992e-001 -3.14200099434401e-001
1.86208713666287e+001	8.99912790341029e-001 -3.20248795112080e-001
1.90546071796325e+001	8.95619189766373e-001 -3.26358272688066e-001
1.94984459975804e+001	8.91160273138944e-001 -3.32525381421364e-001
1.99526231496888e+001	8.86531312819176e-001 -3.38746689949850e-001
2.04173794466953e+001	8.81727588395429e-001 -3.45018476126030e-001
2.08929613085404e+001	8.76744401268097e-001 -3.51336717245585e-001
2.13796208950223e+001	8.71577090414166e-001 -3.57697080769429e-001
2.18776162394955e+001	8.66221049352106e-001 -3.64094915647585e-001
2.23872113856834e+001	8.60671744318997e-001 -3.70525244360586e-001
2.29086765276777e+001	8.54924733662675e-001 -3.76982755801210e-001
2.34422881531992e+001	8.48975688441277e-001 -3.83461799125947e-001
2.39883291901949e+001	8.42820414210985e-001 -3.89956378711593e-001
2.45470891568503e+001	8.36454873969878e-001 -3.96460150357544e-001
2.51188643150958e+001	8.29875212211709e-001 -4.02966418878513e-001
2.57039578276886e+001	8.23077780028098e-001 -4.09468137235410e-001
2.63026799189538e+001	8.16059161181169e-001 -4.15957907353652e-001
2.69153480392691e+001	8.08816199051169e-001 -4.22427982778131e-001
2.75422870333816e+001	8.01346024345130e-001 -4.28870273312153e-001
2.81838293126445e+001	7.93646083433512e-001 -4.35276351783694e-001
2.88403150312660e+001	7.85714167161958e-001 -4.41637463076067e-001
2.95120922666638e+001	7.77548439965306e-001 -4.47944535551422e-001
3.01995172040201e+001	7.69147469090875e-001 -4.54188194984130e-001
3.09029543251359e+001	7.60510253718316e-001 -4.60358781107020e-001
3.16227766016838e+001	7.51636253744183e-001 -4.66446366856427e-001
3.23593656929628e+001	7.42525417981340e-001 -4.72440780382059e-001
3.31131121482591e+001	7.33178211506769e-001 -4.78331629864819e-001
3.38844156139202e+001	7.23595641876710e-001 -4.84108331159880e-001
3.46736850452531e+001	7.13779283915877e-001 -4.89760138253745e-001
3.54813389233575e+001	7.03731302778148e-001 -4.95276176492816e-001
3.63078054770101e+001	6.93454474970177e-001 -5.00645478507479e-001
3.71535229097172e+001	6.82952207027179e-001 -5.05857022720221e-001
3.80189396320561e+001	6.72228551532229e-001 -5.10899774289239e-001
3.89045144994280e+001	6.61288220177027e-001 -5.15762728300924e-001
3.98107170553497e+001	6.50136593573671e-001 -5.20434954986100e-001
4.07380277804112e+001	6.38779727543641e-001 -5.24905646696556e-001
4.16869383470335e+001	6.27224355632202e-001 -5.29164166341083e-001
4.26579518801592e+001	6.15477887623707e-001 -5.33200096944548e-001
4.36515832240165e+001	6.03548403865785e-001 -5.37003291960356e-001
4.46683592150962e+001	5.91444645248005e-001 -5.40563925936836e-001
4.57088189614874e+001	5.79175998722762e-001 -5.43872545112290e-001
4.67735141287197e+001	5.66752478302643e-001 -5.46920117492620e-001
4.78630092322638e+001	5.54184701518544e-001 -5.49698081950116e-001
4.89778819368445e+001	5.41483861375742e-001 -5.52198395872928e-001
5.01187233627271e+001	5.28661693900065e-001 -5.54413580892408e-001
5.12861383991364e+001	5.15730441422353e-001 -5.56336766220312e-001
5.24807460249772e+001	5.02702811805463e-001 -5.57961729140009e-001
5.37031796370252e+001	4.89591933873164e-001 -5.59282932215582e-001
5.49540873857624e+001	4.76411309353202e-001 -5.60295556809742e-001
5.62341325190348e+001	4.63174761696547e-001 -5.60995532535753e-001
5.75439937337156e+001	4.49896382180281e-001 -5.61379562309508e-001
5.88843655355588e+001	4.36590473741740e-001 -5.61445142714987e-001
6.02559586074357e+001	4.23271493025493e-001 -5.61190579448723e-001
6.16595001861481e+001	4.09953991151776e-001 -5.60614997665788e-001
6.30957344480192e+001	3.96652553734409e-001 -5.59718347110007e-001
6.45654229034654e+001	3.83381740687617e-001 -5.58501401973653e-001
6.60693448007595e+001	3.70156026364272e-001 -5.56965755495464e-001
6.76082975391980e+001	3.56989740562720e-001 -5.55113809369229e-001
6.91830970918935e+001	3.43897010925839e-001 -5.52948758097290e-001
7.07945784384136e+001	3.30891707234374e-001 -5.50474568482824e-001
7.24435960074988e+001	3.17987388067670e-001 -5.47695954510603e-001
7.41310241300916e+001	3.05197250269089e-001 -5.44618347917172e-001
7.58577575029182e+001	2.92534081611655e-001 -5.41247864796976e-001
7.76247116628690e+001	2.80010217012612e-001 -5.37591268630367e-001
7.94328234724279e+001	2.67637498594712e-001 -5.33655930151894e-001
8.12830516164097e+001	2.55427239838173e-001 -5.29449784502561e-001
8.31763771102669e+001	2.43390194011540e-001 -5.24981286127491e-001
8.51138038202374e+001	2.31536527013159e-001 -5.20259361890765e-001
8.70963589956078e+001	2.19875794698813e-001 -5.15293362882064e-001
8.91250938133743e+001	2.08416924716128e-001 -5.10093015385591e-001
9.12010839355907e+001	1.97168202813743e-001 -5.04668371470913e-001
9.33254300796988e+001	1.86137263543584e-001 -4.99029759648402e-001
9.54992586021433e+001	1.75331085228782e-001 -4.93187736009545e-001
9.77237220955808e+001	1.64755989028214e-001 -4.87153036245249e-001
9.99999999999997e+001	1.54417641891963e-001 -4.80936528904149e-001
1.02329299228075e+002	1.44321063170348e-001 -4.74549170218625e-001
1.04712854805090e+002	1.34470634612828e-001 -4.68001960789622e-001
1.07151930523760e+002	1.24870113472091e-001 -4.61305904383104e-001
1.09647819614318e+002	1.15522648412892e-001 -4.54471969051991e-001
1.12201845430196e+002	1.06430797914649e-001 -4.47511050758217e-001
1.14815362149688e+002	9.75965508510426e-002 -4.40433939630996e-001
1.17489755493953e+002	8.90213489287461e-002 -4.33251288959813e-001
1.20226443461741e+002	8.07061106704421e-002 -4.25973586984778e-001
1.23026877081238e+002	7.26512566340691e-002 -4.18611131513071e-001
1.25892541179416e+002	6.48567355703728e-002 -4.11174007358630e-001
1.28824955169313e+002	5.73220512338135e-002 -4.03672066573328e-001
1.31825673855640e+002	5.00462895772543e-002 -3.96114911411645e-001
1.34896288259165e+002	4.30281460781712e-002 -3.88511879947598e-001
1.38038426460288e+002	3.62659529629434e-002 -3.80872034242317e-001
1.41253754462275e+002	2.97577061157016e-002 -3.73204150943177e-001
1.44543977074592e+002	2.35010914788359e-002 -3.65516714180852e-001
1.47910838816820e+002	1.74935107732712e-002 -3.57817910618754e-001
1.51356124843620e+002	1.17321063876790e-002 -3.50115626500138e-001
1.54881661891248e+002	6.21378530666691e-003 -3.42417446531345e-001
1.58489319246111e+002	9.35241968419098e-004 -3.34730654435175e-001
1.62181009735892e+002	-4.10702003791658e-003 -3.27062235005973e-001
1.65958690743755e+002	-8.91666750574935e-003 -3.19418877497501e-001
1.69824365246174e+002	-1.34975184279716e-002 -3.11806980175870e-001
1.73780082874937e+002	-1.78535241326125e-002 -3.04232655872530e-001
1.77827941003892e+002	-2.19887527564059e-002 -2.96701738376373e-001
1.81970085860998e+002	-2.59073740604202e-002 -2.89219789509226e-001
1.86208713666286e+002	-2.96136455779513e-002 -2.81792106735291e-001
1.90546071796324e+002	-3.31119000720645e-002 -2.74423731162171e-001
1.94984459975804e+002	-3.64065342684538e-002 -2.67119455799033e-001
1.99526231496887e+002	-3.95019988186721e-002 -2.59883833945933e-001
2.04173794466952e+002	-4.24027894392511e-002 -2.52721187597396e-001
2.08929613085403e+002	-4.51134391637520e-002 -2.45635615752793e-001
2.13796208950222e+002	-4.76385116373479e-002 -2.38631002535933e-001
2.18776162394954e+002	-4.99825953771262e-002 -2.31711025036434e-001
2.23872113856833e+002	-5.21502989158775e-002 -2.24879160795785e-001
2.29086765276776e+002	-5.41462467427209e-002 -2.18138694871619e-001
2.34422881531991e+002	-5.59750759504706e-002 -2.11492726424343e-001
2.39883291901948e+002	-5.76414334971904e-002 -2.04944174781052e-001
2.45470891568502e+002	-5.91499739878921e-002 -1.98495784942371e-001
2.51188643150957e+002	-6.05053578818308e-002 -1.92150132508596e-001
2.57039578276885e+002	-6.17122500313120e-002 -1.85909628012053e-001
2.63026799189537e+002	-6.27753184593775e-002 -1.79776520652998e-001
2.69153480392690e+002	-6.36992332861490e-002 -1.73752901446509e-001
2.75422870333816e+002	-6.44886657170003e-002 -1.67840705797564e-001
2.81838293126444e+002	-6.51482870100544e-002 -1.62041715530865e-001
2.88403150312659e+002	-6.56827673457559e-002 -1.56357560410733e-001
2.95120922666637e+002	-6.60967745274121e-002 -1.50789719194568e-001
3.01995172040200e+002	-6.63949724485555e-002 -1.45339520270813e-001
3.09029543251358e+002	-6.65820192707235e-002 -1.40008141938918e-001
3.16227766016837e+002	-6.66625652636612e-002 -1.34796612394489e-001
3.23593656929627e+002	-6.66412502689617e-002 -1.29705809487437e-001
3.31131121482590e+002	-6.65227007576219e-002 -1.24736460324489e-001
3.38844156139201e+002	-6.63115264618152e-002 -1.19889140789786e-001
3.46736850452530e+002	-6.60123165711836e-002 -1.15164275058454e-001
3.54813389233574e+002	-6.56296354940202e-002 -1.10562135177954e-001
3.63078054770100e+002	-6.51680181936451e-002 -1.06082840790625e-001
3.71535229097171e+002	-6.46319651199469e-002 -1.01726359068273e-001
3.80189396320559e+002	-6.40259367652720e-002 -9.74925049257990e-002
3.89045144994279e+002	-6.33543478824479e-002 -9.33809415759447e-002
3.98107170553495e+002	-6.26215614105728e-002 -8.93911814811562e-002
4.07380277804111e+002	-6.18318821611360e-002 -8.55225877516376e-002
4.16869383470333e+002	-6.09895503229436e-002 -8.17743760308472e-002
4.26579518801591e+002	-6.00987348490993e-002 -7.81456169012422e-002
4.36515832240164e+002	-5.91635267928494e-002 -7.46352388341226e-002
4.46683592150961e+002	-5.81879326613960e-002 -7.12420316981465e-002
4.57088189614873e+002	-5.71758678577812e-002 -6.79646508316805e-002
4.67735141287196e+002	-5.61311502806582e-002 -6.48016216747873e-002
4.78630092322636e+002	-5.50574941502134e-002 -6.17513449475251e-002
4.89778819368444e+002	-5.39585041257601e-002 -5.88121023525158e-002
5.01187233627270e+002	-5.28376697766648e-002 -5.59820627715873e-002
5.12861383991362e+002	-5.16983604634028e-002 -5.32592889188649e-002
5.24807460249770e+002	-5.05438206798007e-002 -5.06417444060863e-002
5.37031796370250e+002	-4.93771659010544e-002 -4.81273011702646e-002
5.49540873857622e+002	-4.82013789750623e-002 -4.57137472091834e-002
5.62341325190346e+002	-4.70193070871532e-002 -4.33987945666338e-002
5.75439937337154e+002	-4.58336593205779e-002 -4.11800875068237e-002
5.88843655355586e+002	-4.46470048273322e-002 -3.90552108159905e-002
6.02559586074355e+002	-4.34617716161505e-002 -3.70216981689129e-002
6.16595001861479e+002	-4.22802459569859e-002 -3.50770404986916e-002
6.30957344480190e+002	-4.11045723941184e-002 -3.32186943097826e-002
6.45654229034652e+002	-3.99367543533165e-002 -3.14440898767385e-002
6.60693448007592e+002	-3.87786553223168e-002 -2.97506392743426e-002
6.76082975391978e+002	-3.76320005783602e-002 -2.81357441886927e-002
6.91830970918933e+002	-3.64983794316967e-002 -2.65968034632057e-002
7.07945784384134e+002	-3.53792479498691e-002 -2.51312203383394e-002
7.24435960074986e+002	-3.42759321242450e-002 -2.37364093489519e-002
7.41310241300914e+002	-3.31896314376780e-002 -2.24098028485336e-002
7.58577575029180e+002	-3.21214227903333e-002 -2.11488571349368e-002
7.76247116628688e+002	-3.10722647395846e-002 -1.99510581575951e-002
7.94328234724277e+002	-3.00430020094295e-002 -1.88139267914866e-002
8.12830516164095e+002	-2.90343702250436e-002 -1.77350236681594e-002
8.31763771102666e+002	-2.80470008288250e-002 -1.67119535589495e-002
8.51138038202372e+002	-2.70814261355215e-002 -1.57423693100179e-002
8.70963589956076e+002	-2.61380844857074e-002 -1.48239753329720e-002
8.91250938133741e+002	-2.52173254589211e-002 -1.39545306585868e-002
9.12010839355905e+002	-2.43194151101181e-002 -1.31318515644808e-002
9.33254300796986e+002	-2.34445411956730e-002 -1.23538137905191e-002
9.54992586021431e+002	-2.25928183579147e-002 -1.16183543582109e-002
9.77237220955805e+002	-2.17642932400401e-002 -1.09234730124442e-002
9.99999999999994e+002	-2.09589495061710e-002 -1.02672333055750e-002
1.02329299228075e+003	-2.01767127442500e-002 -9.64776334517475e-003
1.04712854805089e+003	-1.94174552323622e-002 -9.06325622766419e-003
1.07151930523760e+003	-1.86810005518975e-002 -8.51197018065241e-003
1.09647819614318e+003	-1.79671280336839e-002 -7.99222843708436e-003
1.12201845430196e+003	-1.72755770258185e-002 -7.50241886430803e-003
1.14815362149688e+003	-1.66060509743615e-002 -7.04099337093845e-003
1.17489755493952e+003	-1.59582213103417e-002 -6.60646711394940e-003
1.20226443461741e+003	-1.53317311386225e-002 -6.19741752779554e-003
1.23026877081237e+003	-1.47261987261022e-002 -5.81248319658904e-003
1.25892541179416e+003	-1.41412207884619e-002 -5.45036258945211e-003
1.28824955169313e+003	-1.35763755762285e-002 -5.10981267816802e-003
1.31825673855640e+003	-1.30312257622984e-002 -4.78964745518059e-003
1.34896288259165e+003	-1.25053211342680e-002 -4.48873636887019e-003
1.38038426460288e+003	-1.19982010959510e-002 -4.20600269188021e-003
1.41253754462275e+003	-1.15093969833412e-002 -3.94042183710127e-003
1.44543977074592e+003	-1.10384342010045e-002 -3.69101963475537e-003
1.47910838816820e+003	-1.05848341854766e-002 -3.45687058287175e-003
1.51356124843620e+003	-1.01481162027051e-002 -3.23709608232224e-003
1.54881661891247e+003	-9.72779898692329e-003 -3.03086266649469e-003
1.58489319246110e+003	-9.32340222858554e-003 -2.83738023463602e-003
1.62181009735892e+003	-8.93444791914713e-003 -2.65590029689843e-003
1.65958690743755e+003	-8.56046156053571e-003 -2.48571423817529e-003
1.69824365246173e+003	-8.20097324715945e-003 -2.32615160692333e-003
1.73780082874936e+003	-7.85551862822783e-003 -2.17657843433337e-003
1.77827941003891e+003	-7.52363975803978e-003 -2.03639558843686e-003
1.81970085860997e+003	-7.20488584172678e-003 -1.90503716701787e-003
1.86208713666286e+003	-6.89881388373377e-003 -1.78196893254009e-003
1.90546071796323e+003	-6.60498924608478e-003 -1.66668679169479e-003
1.94984459975803e+003	-6.32298612322063e-003 -1.55871532162567e-003
1.99526231496887e+003	-6.05238793991719e-003 -1.45760634438964e-003
2.04173794466952e+003	-5.79278767850040e-003 -1.36293755076453e-003
2.08929613085403e+003	-5.54378814127341e-003 -1.27431117411482e-003
2.13796208950222e+003	-5.30500215376442e-003 -1.19135271466987e-003
2.18776162394954e+003	-5.07605271409611e-003 -1.11370971425529e-003
2.23872113856832e+003	-4.85657309347037e-003 -1.04105058124164e-003
2.29086765276776e+003	-4.64620689245932e-003 -9.73063465235179e-004
2.34422881531991e+003	-4.44460805749590e-003 -9.09455180828205e-004
2.39883291901947e+003	-4.25144086166766e-003 -8.49950179549554e-004
2.45470891568501e+003	-4.06637985363638e-003 -7.94289569007139e-004
2.51188643150956e+003	-3.88910977823517e-003 -7.42230178090008e-004
2.57039578276885e+003	-3.71932547203429e-003 -6.93543666996209e-004
2.63026799189536e+003	-3.55673173691847e-003 -6.48015680771715e-004
2.69153480392690e+003	-3.40104319448117e-003 -6.05445044983002e-004
2.75422870333815e+003	-3.25198412381636e-003 -5.65643002099443e-004
2.81838293126443e+003	-3.10928828507560e-003 -5.28432487129682e-004
2.88403150312659e+003	-2.97269873095727e-003 -4.93647441036901e-004
2.95120922666636e+003	-2.84196760810612e-003 -4.61132160449749e-004
3.01995172040199e+003	-2.71685595022404e-003 -4.30740682187243e-004
3.09029543251357e+003	-2.59713346452725e-003 -4.02336201125924e-004
3.16227766016836e+003	-2.48257831303055e-003 -3.75790519954630e-004
3.23593656929626e+003	-2.37297688999511e-003 -3.50983529385462e-004
3.31131121482589e+003	-2.26812359674260e-003 -3.27802717417836e-004
3.38844156139200e+003	-2.16782061491450e-003 -3.06142706285057e-004
3.46736850452529e+003	-2.07187767914050e-003 -2.85904815748836e-004
3.54813389233573e+003	-1.98011184997441e-003 -2.66996651445929e-004
3.63078054770099e+003	-1.89234728785820e-003 -2.49331717031901e-004
3.71535229097170e+003	-1.80841502878526e-003 -2.32829048909501e-004
3.80189396320558e+003	-1.72815276225181e-003 -2.17412872372617e-004
3.89045144994278e+003	-1.65140461201000e-003 -2.03012278041008e-004
3.98107170553494e+003	-1.57802092006770e-003 -1.89560917505525e-004
4.07380277804110e+003	-1.50785803431703e-003 -1.76996717147996e-004
4.16869383470332e+003	-1.44077810011684e-003 -1.65261609144216e-004
4.26579518801589e+003	-1.37664885610266e-003 -1.54301278702141e-004
4.36515832240162e+003	-1.31534343445049e-003 -1.44064926630449e-004
4.46683592150960e+003	-1.25674016577875e-003 -1.34505046374714e-004
4.57088189614871e+003	-1.20072238883443e-003 -1.25577214699612e-004
4.67735141287194e+003	-1.14717826507506e-003 -1.17239895235633e-004
4.78630092322634e+003	-1.09600059822768e-003 -1.09454254147570e-004
4.89778819368442e+003	-1.04708665887814e-003 -1.02183987219725e-004
5.01187233627268e+003	-1.00033801411983e-003 -9.53951576890105e-005
5.12861383991361e+003	-9.55660362269284e-004 -8.90560441921176e-005
5.24807460249768e+003	-9.12963372636517e-004 -8.31369982265598e-005
5.37031796370248e+003	-8.72160530321600e-004 -7.76103105576221e-005
5.49540873857620e+003	-8.33168985993672e-004 -7.24500860341830e-005
5.62341325190344e+003	-7.95909410596020e-004 -6.76321263059298e-005
5.75439937337152e+003	-7.60305854909556e-004 -6.31338199627217e-005
5.88843655355584e+003	-7.26285613897480e-004 -5.89340396437956e-005
6.02559586074353e+003	-6.93779095745758e-004 -5.50130456901622e-005
6.16595001861477e+003	-6.62719695507173e-004 -5.13523959379626e-005
6.30957344480188e+003	-6.33043673250998e-004 -4.79348612737592e-005
6.45654229034650e+003	-6.04690036615695e-004 -4.47443465947798e-005
6.60693448007590e+003	-5.77600427658305e-004 -4.17658168380350e-005
6.76082975391976e+003	-5.51719013891324e-004 -3.89852277620548e-005
6.91830970918931e+003	-5.26992383395742e-004 -3.63894611837525e-005
7.07945784384132e+003	-5.03369443897446e-004 -3.39662643906913e-005
7.24435960074984e+003	-4.80801325693322e-004 -3.17041934658231e-005
7.41310241300911e+003	-4.59241288313089e-004 -2.95925602776420e-005
7.58577575029177e+003	-4.38644630802983e-004 -2.76213829036871e-005
7.76247116628685e+003	-4.18968605517958e-004 -2.57813392694745e-005
7.94328234724275e+003	-4.00172335309980e-004 -2.40637237982871e-005
